
T00D8 000:513 SEGGER J-Link V4.84a Log File (0002ms, 0303ms total)
T00D8 000:513 DLL Compiled: Apr  4 2014 18:02:19 (0004ms, 0305ms total)
T00D8 000:513 Logging started @ 2016-02-24 09:15 (0005ms, 0306ms total)
T00D8 000:518 JLINK_SetWarnOutHandler(...) (0002ms, 0308ms total)
T00D8 000:520 JLINK_OpenEx(...)
Firmware: J-Link ARM-OB STM32 compiled Aug 22 2012 19:52:04
Hardware: V7.00
S/N: 20090928
Feature(s): RDI,FlashDL,FlashBP,JFlash,GDBFull  returns O.K. (0290ms, 0598ms total)
T00D8 000:810 JLINK_SetErrorOutHandler(...) (0001ms, 0599ms total)
T00D8 000:812 JLINK_ExecCommand("ProjectFile = "E:\code\keil\handle_radar\USER\JLinkSettings.ini"", ...)  returns 0x00 (0007ms, 0607ms total)
T00D8 000:820 JLINK_ExecCommand("Device = STM32F105RC", ...)Device "STM32F105RC" selected (256 KB flash, 64 KB RAM).  returns 0x00 (0001ms, 0610ms total)
T00D8 000:822 JLINK_ExecCommand("DisableConnectionTimeout", ...)  returns 0x01 (0000ms, 0611ms total)
T00D8 000:823 JLINK_GetHardwareVersion()  returns 0x11170 (0001ms, 0612ms total)
T00D8 000:825 JLINK_GetDLLVersion()  returns 48401 (0001ms, 0614ms total)
T00D8 000:826 JLINK_GetFirmwareString(...) (0001ms, 0615ms total)
T00D8 000:827 JLINK_GetDLLVersion()  returns 48401 (0001ms, 0616ms total)
T00D8 000:828 JLINK_GetCompileDateTime() (0001ms, 0617ms total)
T00D8 000:830 JLINK_GetFirmwareString(...) (0000ms, 0618ms total)
T00D8 000:831 JLINK_GetHardwareVersion()  returns 0x11170 (0001ms, 0620ms total)
T00D8 000:833 JLINK_TIF_Select(JLINKARM_TIF_SWD)  returns 0x00 (0007ms, 0628ms total)
T00D8 000:841 JLINK_SetSpeed(5000) (0002ms, 0631ms total)
T00D8 000:843 JLINK_GetId() >0x108 TIF>Found SWD-DP with ID 0x1BA01477 >0x0D TIF> >0x28 TIF> >0x0D TIF> >0x28 TIF> >0x0D TIF> >0x21 TIF> >0x0D TIF> >0x28 TIF> >0x0D TIF> >0x28 TIF> >0x0D TIF> >0x28 TIF> >0x0D TIF> >0x21 TIF> >0x0D TIF> >0x21 TIF> >0x0D TIF> >0x28 TIF> >0x0D TIF> >0x21 TIF> >0x0D TIF> >0x21 TIF> >0x108 TIF>Found SWD-DP with ID 0x1BA01477 >0x0D TIF> >0x21 TIF> >0x0D TIF> >0x28 TIF> >0x0D TIF> >0x28 TIF> >0x0D TIF> >0x21 TIF> >0x0D TIF> >0x28 TIF> >0x0D TIF> >0x21 TIF> >0x0D TIF> >0x21 TIF>
 >0x0D TIF> >0x21 TIF> >0x0D TIF> >0x21 TIF> >0x0D TIF> >0x28 TIF> >0x0D TIF> >0x28 TIF> >0x0D TIF> >0x21 TIF> >0x0D TIF> >0x28 TIF> >0x0D TIF> >0x28 TIF> >0x0D TIF> >0x28 TIF> >0x0D TIF> >0x21 TIF> >0x0D TIF> >0x21 TIF> >0x0D TIF> >0x28 TIF> >0x0D TIF> >0x21 TIF> >0x0D TIF> >0x21 TIF>Found Cortex-M3 r1p1, Little endian. -- CPU_WriteMem(4 bytes @ 0xE0002000) -- CPU_ReadMem(4 bytes @ 0xE000EDF0) -- CPU_ReadMem(4 bytes @ 0xE0002000)FPUnit: 6 code (BP) slots and 2 literal slots
 -- CPU_ReadMem(4 bytes @ 0xE000EDFC) -- CPU_ReadMem(4 bytes @ 0xE0001000) -- CPU_WriteMem(4 bytes @ 0xE0001000) -- CPU_ReadMem(4 bytes @ 0xE00FF010)TPIU fitted. -- CPU_ReadMem(4 bytes @ 0xE00FF014)ETM fitted. -- CPU_ReadMem(4 bytes @ 0xE00FF018) >0x0D TIF> >0x21 TIF>  returns 0x1BA01477 (0118ms, 0749ms total)
T00D8 000:961 JLINK_GetDeviceFamily()  returns 3 (0002ms, 0751ms total)
T00D8 000:964 JLINK_ReadMem (0xE00FFFF0, 0x0010 Bytes, ...) -- CPU is running -- CPU_ReadMem(16 bytes @ 0xE00FFFF0) -- Data:  0D 00 00 00 10 00 00 00 05 00 00 00 B1 00 00 00  returns 0x00 (0003ms, 0755ms total)
T00D8 000:967 JLINK_ReadMem (0xE00FFFD0, 0x0020 Bytes, ...) -- CPU is running -- CPU_ReadMem(32 bytes @ 0xE00FFFD0) -- Data:  00 00 00 00 00 00 00 00 00 00 00 00 00 00 00 00 ...  returns 0x00 (0003ms, 0758ms total)
T00D8 000:970 JLINK_ReadMem (0xE00FF000, 0x0018 Bytes, ...) -- CPU is running -- CPU_ReadMem(24 bytes @ 0xE00FF000) -- Data:  03 F0 F0 FF 03 20 F0 FF 03 30 F0 FF 03 10 F0 FF ...  returns 0x00 (0003ms, 0761ms total)
T00D8 000:973 JLINK_ReadMemU32(0xE000ED00, 0x0001 Items, ...) -- CPU is running -- CPU_ReadMem(4 bytes @ 0xE000ED00) -- Data:  31 C2 1F 41  returns 0x01 (0003ms, 0764ms total)
T00D8 000:976 JLINK_SetResetType(JLINKARM_RESET_TYPE_NORMAL)  returns JLINKARM_RESET_TYPE_NORMAL (0001ms, 0765ms total)
T00D8 000:977 JLINK_Reset() -- CPU is running -- CPU_WriteMem(4 bytes @ 0xE000EDF0) -- CPU is running -- CPU_WriteMem(4 bytes @ 0xE000EDFC) >0x35 TIF> -- CPU is running -- CPU_WriteMem(4 bytes @ 0xE000ED0C) -- CPU is running -- CPU_ReadMem(4 bytes @ 0xE000EDF0) -- CPU is running -- CPU_ReadMem(4 bytes @ 0xE000EDF0) -- CPU is running -- CPU_WriteMem(4 bytes @ 0xE000EDF0) -- CPU is running -- CPU_WriteMem(4 bytes @ 0xE000EDFC) -- CPU is running -- CPU_ReadMem(4 bytes @ 0xE000EDF0)
 -- CPU_WriteMem(4 bytes @ 0xE0002000) -- CPU_ReadMem(4 bytes @ 0xE000EDFC) -- CPU_ReadMem(4 bytes @ 0xE0001000) (0034ms, 0799ms total)
T00D8 001:012 JLINK_ReadReg(R15 (PC))  returns 0x080037E0 (0002ms, 0802ms total)
T00D8 001:014 JLINK_ReadReg(XPSR)  returns 0x01000000 (0001ms, 0803ms total)
T00D8 001:016 JLINK_Halt()  returns 0x00 (0000ms, 0804ms total)
T00D8 001:017 JLINK_IsHalted()  returns TRUE (0001ms, 0806ms total)
T00D8 001:018 JLINK_ReadMemU32(0xE000EDF0, 0x0001 Items, ...) -- CPU_ReadMem(4 bytes @ 0xE000EDF0) -- Data:  03 00 03 00  returns 0x01 (0004ms, 0809ms total)
T00D8 001:023 JLINK_WriteU32(0xE000EDF0, 0xA05F0003) -- CPU_WriteMem(4 bytes @ 0xE000EDF0)  returns 0x00 (0003ms, 0813ms total)
T00D8 001:026 JLINK_WriteU32(0xE000EDFC, 0x01000000) -- CPU_WriteMem(4 bytes @ 0xE000EDFC)  returns 0x00 (0003ms, 0816ms total)
T00D8 001:029 JLINK_GetHWStatus(...)  returns 0x00 (0002ms, 0818ms total)
T00D8 001:032 JLINK_GetNumBPUnits(Type = 0xFFFFFF00)  returns 0x06 (0001ms, 0820ms total)
T00D8 001:033 JLINK_GetNumBPUnits(Type = 0xF0)  returns 0x2000 (0001ms, 0821ms total)
T00D8 001:035 JLINK_GetNumWPUnits()  returns 0x04 (0001ms, 0823ms total)
T00D8 001:036 JLINK_GetSpeed()  returns 0xFA0 (0002ms, 0825ms total)
T00D8 001:038 JLINK_ReadMemU32(0xE000E004, 0x0001 Items, ...) -- CPU_ReadMem(4 bytes @ 0xE000E004) -- Data:  01 00 00 00  returns 0x01 (0004ms, 0829ms total)
T00D8 001:042 JLINK_ReadMemU32(0xE000E004, 0x0001 Items, ...) -- CPU_ReadMem(4 bytes @ 0xE000E004) -- Data:  01 00 00 00  returns 0x01 (0003ms, 0832ms total)
T00D8 001:046 JLINK_WriteMem(0xE0001000, 0x001C Bytes, ...) -- Data:  01 00 00 00 00 00 00 00 00 00 00 00 00 00 00 00 ... -- CPU_WriteMem(28 bytes @ 0xE0001000)  returns 0x1C (0003ms, 0836ms total)
T00D8 001:049 JLINK_ReadMem (0xE0001000, 0x001C Bytes, ...) -- CPU_ReadMem(28 bytes @ 0xE0001000) -- Data:  01 00 00 40 00 00 00 00 00 00 00 00 00 00 00 00 ...  returns 0x00 (0003ms, 0839ms total)
T00D8 001:052 JLINK_ReadReg(R15 (PC))  returns 0x080037E0 (0002ms, 0841ms total)
T00D8 001:054 JLINK_ReadReg(XPSR)  returns 0x01000000 (0002ms, 0843ms total)
T00D8 001:159 JLINK_SetResetType(JLINKARM_RESET_TYPE_NORMAL)  returns JLINKARM_RESET_TYPE_NORMAL (0001ms, 0844ms total)
T00D8 001:161 JLINK_Reset() -- CPU_WriteMem(4 bytes @ 0xE000EDF0) -- CPU_WriteMem(4 bytes @ 0xE000EDFC) >0x35 TIF> -- CPU_WriteMem(4 bytes @ 0xE000ED0C) -- CPU_ReadMem(4 bytes @ 0xE000EDF0) -- CPU_ReadMem(4 bytes @ 0xE000EDF0) -- CPU_WriteMem(4 bytes @ 0xE000EDF0) -- CPU_WriteMem(4 bytes @ 0xE000EDFC) -- CPU is running -- CPU_ReadMem(4 bytes @ 0xE000EDF0) -- CPU_WriteMem(4 bytes @ 0xE0002000) -- CPU_ReadMem(4 bytes @ 0xE000EDFC) -- CPU_ReadMem(4 bytes @ 0xE0001000) (0036ms, 0881ms total)
T00D8 001:197 JLINK_ReadReg(R15 (PC))  returns 0x080037E0 (0001ms, 0882ms total)
T00D8 001:199 JLINK_ReadReg(XPSR)  returns 0x01000000 (0001ms, 0884ms total)
T00D8 001:202 JLINK_ReadMem (0x080036E0, 0x003C Bytes, ...) -- CPU_ReadMem(128 bytes @ 0x080036C0) -- Updating C cache (128 bytes @ 0x080036C0) -- Read from C cache (60 bytes @ 0x080036E0) -- Data:  08 60 08 46 40 68 34 49 08 40 31 49 48 60 08 46 ...  returns 0x00 (0005ms, 0889ms total)
T00D8 001:207 JLINK_ReadMem (0x0800371C, 0x003C Bytes, ...) -- CPU_ReadMem(64 bytes @ 0x08003740) -- Updating C cache (64 bytes @ 0x08003740) -- Read from C cache (60 bytes @ 0x0800371C) -- Data:  28 49 08 60 10 BD 10 B5 00 21 00 20 00 22 21 4B ...  returns 0x00 (0004ms, 0893ms total)
T00D8 001:212 JLINK_ReadMem (0x08003758, 0x003C Bytes, ...) -- CPU_ReadMem(64 bytes @ 0x08003780) -- Updating C cache (64 bytes @ 0x08003780) -- Read from C cache (60 bytes @ 0x08003758) -- Data:  5B 68 03 F4 80 32 02 23 03 EB 90 40 22 B9 19 4B ...  returns 0x00 (0004ms, 0898ms total)
T00D8 001:216 JLINK_ReadMem (0x08003794, 0x003C Bytes, ...) -- CPU_ReadMem(64 bytes @ 0x080037C0) -- Updating C cache (64 bytes @ 0x080037C0) -- Read from C cache (60 bytes @ 0x08003794) -- Data:  00 BF 00 BF 05 4B 5B 68 C3 F3 03 13 0B 4C E1 5C ...  returns 0x00 (0004ms, 0902ms total)
T00D8 001:220 JLINK_ReadMem (0x080037D4, 0x003C Bytes, ...) -- CPU_ReadMem(64 bytes @ 0x08003800) -- Updating C cache (64 bytes @ 0x08003800) -- Read from C cache (60 bytes @ 0x080037D4) -- Data:  70 47 00 BF FE E7 00 BF FE E7 00 00 09 48 80 47 ...  returns 0x00 (0004ms, 0906ms total)
T00D8 001:328 JLINK_ReadMem (0x40010C00, 0x0018 Bytes, ...) -- CPU_ReadMem(24 bytes @ 0x40010C00) -- Data:  44 44 48 44 44 44 44 44 00 00 00 00 10 00 00 00 ...  returns 0x00 (0009ms, 0916ms total)
T00D8 001:337 JLINK_ReadMem (0x40010C18, 0x0004 Bytes, ...) -- CPU_ReadMem(4 bytes @ 0x40010C18) -- Data:  00 00 00 00  returns 0x00 (0002ms, 0918ms total)
T00D8 001:339 JLINK_ReadMem (0x40010C00, 0x0004 Bytes, ...) -- CPU_ReadMem(4 bytes @ 0x40010C00) -- Data:  44 44 48 44  returns 0x00 (0003ms, 0921ms total)
T00D8 001:342 JLINK_ReadMem (0x40010C00, 0x0004 Bytes, ...) -- CPU_ReadMem(4 bytes @ 0x40010C00) -- Data:  44 44 48 44  returns 0x00 (0003ms, 0924ms total)
T00D8 001:345 JLINK_ReadMem (0x40010C00, 0x0004 Bytes, ...) -- CPU_ReadMem(4 bytes @ 0x40010C00) -- Data:  44 44 48 44  returns 0x00 (0002ms, 0926ms total)
T00D8 001:347 JLINK_ReadMem (0x40010C00, 0x0004 Bytes, ...) -- CPU_ReadMem(4 bytes @ 0x40010C00) -- Data:  44 44 48 44  returns 0x00 (0003ms, 0929ms total)
T00D8 001:350 JLINK_ReadMem (0x40010C00, 0x0004 Bytes, ...) -- CPU_ReadMem(4 bytes @ 0x40010C00) -- Data:  44 44 48 44  returns 0x00 (0002ms, 0931ms total)
T00D8 001:353 JLINK_ReadMem (0x40010C00, 0x0004 Bytes, ...) -- CPU_ReadMem(4 bytes @ 0x40010C00) -- Data:  44 44 48 44  returns 0x00 (0002ms, 0934ms total)
T00D8 001:355 JLINK_ReadMem (0x40010C00, 0x0004 Bytes, ...) -- CPU_ReadMem(4 bytes @ 0x40010C00) -- Data:  44 44 48 44  returns 0x00 (0002ms, 0936ms total)
T00D8 001:358 JLINK_ReadMem (0x40010C00, 0x0004 Bytes, ...) -- CPU_ReadMem(4 bytes @ 0x40010C00) -- Data:  44 44 48 44  returns 0x00 (0002ms, 0939ms total)
T00D8 001:360 JLINK_ReadMem (0x40010C00, 0x0004 Bytes, ...) -- CPU_ReadMem(4 bytes @ 0x40010C00) -- Data:  44 44 48 44  returns 0x00 (0003ms, 0942ms total)
T00D8 001:363 JLINK_ReadMem (0x40010C00, 0x0004 Bytes, ...) -- CPU_ReadMem(4 bytes @ 0x40010C00) -- Data:  44 44 48 44  returns 0x00 (0002ms, 0944ms total)
T00D8 001:366 JLINK_ReadMem (0x40010C00, 0x0004 Bytes, ...) -- CPU_ReadMem(4 bytes @ 0x40010C00) -- Data:  44 44 48 44  returns 0x00 (0002ms, 0947ms total)
T00D8 001:369 JLINK_ReadMem (0x40010C00, 0x0004 Bytes, ...) -- CPU_ReadMem(4 bytes @ 0x40010C00) -- Data:  44 44 48 44  returns 0x00 (0003ms, 0951ms total)
T00D8 001:372 JLINK_ReadMem (0x40010C00, 0x0004 Bytes, ...) -- CPU_ReadMem(4 bytes @ 0x40010C00) -- Data:  44 44 48 44  returns 0x00 (0004ms, 0955ms total)
T00D8 001:376 JLINK_ReadMem (0x40010C00, 0x0004 Bytes, ...) -- CPU_ReadMem(4 bytes @ 0x40010C00) -- Data:  44 44 48 44  returns 0x00 (0003ms, 0958ms total)
T00D8 001:380 JLINK_ReadMem (0x40010C00, 0x0004 Bytes, ...) -- CPU_ReadMem(4 bytes @ 0x40010C00) -- Data:  44 44 48 44  returns 0x00 (0003ms, 0962ms total)
T00D8 001:383 JLINK_ReadMem (0x40010C00, 0x0004 Bytes, ...) -- CPU_ReadMem(4 bytes @ 0x40010C00) -- Data:  44 44 48 44  returns 0x00 (0002ms, 0964ms total)
T00D8 001:386 JLINK_ReadMem (0x40010C00, 0x0004 Bytes, ...) -- CPU_ReadMem(4 bytes @ 0x40010C00) -- Data:  44 44 48 44  returns 0x00 (0002ms, 0967ms total)
T00D8 001:388 JLINK_ReadMem (0x40010C04, 0x0004 Bytes, ...) -- CPU_ReadMem(4 bytes @ 0x40010C04) -- Data:  44 44 44 44  returns 0x00 (0004ms, 0971ms total)
T00D8 001:392 JLINK_ReadMem (0x40010C04, 0x0004 Bytes, ...) -- CPU_ReadMem(4 bytes @ 0x40010C04) -- Data:  44 44 44 44  returns 0x00 (0002ms, 0973ms total)
T00D8 001:395 JLINK_ReadMem (0x40010C04, 0x0004 Bytes, ...) -- CPU_ReadMem(4 bytes @ 0x40010C04) -- Data:  44 44 44 44  returns 0x00 (0002ms, 0976ms total)
T00D8 001:397 JLINK_ReadMem (0x40010C04, 0x0004 Bytes, ...) -- CPU_ReadMem(4 bytes @ 0x40010C04) -- Data:  44 44 44 44  returns 0x00 (0002ms, 0978ms total)
T00D8 001:400 JLINK_ReadMem (0x40010C04, 0x0004 Bytes, ...) -- CPU_ReadMem(4 bytes @ 0x40010C04) -- Data:  44 44 44 44  returns 0x00 (0002ms, 0981ms total)
T00D8 001:402 JLINK_ReadMem (0x40010C04, 0x0004 Bytes, ...) -- CPU_ReadMem(4 bytes @ 0x40010C04) -- Data:  44 44 44 44  returns 0x00 (0004ms, 0985ms total)
T00D8 001:406 JLINK_ReadMem (0x40010C04, 0x0004 Bytes, ...) -- CPU_ReadMem(4 bytes @ 0x40010C04) -- Data:  44 44 44 44  returns 0x00 (0005ms, 0990ms total)
T00D8 001:411 JLINK_ReadMem (0x40010C04, 0x0004 Bytes, ...) -- CPU_ReadMem(4 bytes @ 0x40010C04) -- Data:  44 44 44 44  returns 0x00 (0003ms, 0993ms total)
T00D8 001:414 JLINK_ReadMem (0x40010C04, 0x0004 Bytes, ...) -- CPU_ReadMem(4 bytes @ 0x40010C04) -- Data:  44 44 44 44  returns 0x00 (0003ms, 0996ms total)
T00D8 001:417 JLINK_ReadMem (0x40010C04, 0x0004 Bytes, ...) -- CPU_ReadMem(4 bytes @ 0x40010C04) -- Data:  44 44 44 44  returns 0x00 (0002ms, 0998ms total)
T00D8 001:419 JLINK_ReadMem (0x40010C04, 0x0004 Bytes, ...) -- CPU_ReadMem(4 bytes @ 0x40010C04) -- Data:  44 44 44 44  returns 0x00 (0002ms, 1000ms total)
T00D8 001:423 JLINK_ReadMem (0x40010C04, 0x0004 Bytes, ...) -- CPU_ReadMem(4 bytes @ 0x40010C04) -- Data:  44 44 44 44  returns 0x00 (0002ms, 1004ms total)
T00D8 001:425 JLINK_ReadMem (0x40010C04, 0x0004 Bytes, ...) -- CPU_ReadMem(4 bytes @ 0x40010C04) -- Data:  44 44 44 44  returns 0x00 (0003ms, 1007ms total)
T00D8 001:428 JLINK_ReadMem (0x40010C04, 0x0004 Bytes, ...) -- CPU_ReadMem(4 bytes @ 0x40010C04) -- Data:  44 44 44 44  returns 0x00 (0002ms, 1009ms total)
T00D8 001:431 JLINK_ReadMem (0x40010C04, 0x0004 Bytes, ...) -- CPU_ReadMem(4 bytes @ 0x40010C04) -- Data:  44 44 44 44  returns 0x00 (0002ms, 1012ms total)
T00D8 001:433 JLINK_ReadMem (0x40010C04, 0x0004 Bytes, ...) -- CPU_ReadMem(4 bytes @ 0x40010C04) -- Data:  44 44 44 44  returns 0x00 (0003ms, 1015ms total)
T00D8 001:436 JLINK_ReadMem (0x40010C04, 0x0004 Bytes, ...) -- CPU_ReadMem(4 bytes @ 0x40010C04) -- Data:  44 44 44 44  returns 0x00 (0002ms, 1017ms total)
T00D8 001:438 JLINK_ReadMem (0x40010C0C, 0x0004 Bytes, ...) -- CPU_ReadMem(4 bytes @ 0x40010C0C) -- Data:  10 00 00 00  returns 0x00 (0003ms, 1020ms total)
T00D8 001:441 JLINK_ReadMem (0x40010C0C, 0x0004 Bytes, ...) -- CPU_ReadMem(4 bytes @ 0x40010C0C) -- Data:  10 00 00 00  returns 0x00 (0002ms, 1022ms total)
T00D8 001:444 JLINK_ReadMem (0x40010C0C, 0x0004 Bytes, ...) -- CPU_ReadMem(4 bytes @ 0x40010C0C) -- Data:  10 00 00 00  returns 0x00 (0002ms, 1025ms total)
T00D8 001:446 JLINK_ReadMem (0x40010C0C, 0x0004 Bytes, ...) -- CPU_ReadMem(4 bytes @ 0x40010C0C) -- Data:  10 00 00 00  returns 0x00 (0003ms, 1028ms total)
T00D8 001:449 JLINK_ReadMem (0x40010C0C, 0x0004 Bytes, ...) -- CPU_ReadMem(4 bytes @ 0x40010C0C) -- Data:  10 00 00 00  returns 0x00 (0002ms, 1030ms total)
T00D8 001:451 JLINK_ReadMem (0x40010C0C, 0x0004 Bytes, ...) -- CPU_ReadMem(4 bytes @ 0x40010C0C) -- Data:  10 00 00 00  returns 0x00 (0003ms, 1033ms total)
T00D8 001:454 JLINK_ReadMem (0x40010C0C, 0x0004 Bytes, ...) -- CPU_ReadMem(4 bytes @ 0x40010C0C) -- Data:  10 00 00 00  returns 0x00 (0002ms, 1035ms total)
T00D8 001:456 JLINK_ReadMem (0x40010C0C, 0x0004 Bytes, ...) -- CPU_ReadMem(4 bytes @ 0x40010C0C) -- Data:  10 00 00 00  returns 0x00 (0003ms, 1038ms total)
T00D8 001:459 JLINK_ReadMem (0x40010C0C, 0x0004 Bytes, ...) -- CPU_ReadMem(4 bytes @ 0x40010C0C) -- Data:  10 00 00 00  returns 0x00 (0003ms, 1041ms total)
T00D8 001:462 JLINK_ReadMem (0x40010C0C, 0x0004 Bytes, ...) -- CPU_ReadMem(4 bytes @ 0x40010C0C) -- Data:  10 00 00 00  returns 0x00 (0002ms, 1043ms total)
T00D8 001:464 JLINK_ReadMem (0x40010C0C, 0x0004 Bytes, ...) -- CPU_ReadMem(4 bytes @ 0x40010C0C) -- Data:  10 00 00 00  returns 0x00 (0003ms, 1046ms total)
T00D8 001:467 JLINK_ReadMem (0x40010C0C, 0x0004 Bytes, ...) -- CPU_ReadMem(4 bytes @ 0x40010C0C) -- Data:  10 00 00 00  returns 0x00 (0002ms, 1048ms total)
T00D8 001:470 JLINK_ReadMem (0x40010C0C, 0x0004 Bytes, ...) -- CPU_ReadMem(4 bytes @ 0x40010C0C) -- Data:  10 00 00 00  returns 0x00 (0002ms, 1051ms total)
T00D8 001:472 JLINK_ReadMem (0x40010C0C, 0x0004 Bytes, ...) -- CPU_ReadMem(4 bytes @ 0x40010C0C) -- Data:  10 00 00 00  returns 0x00 (0003ms, 1054ms total)
T00D8 001:475 JLINK_ReadMem (0x40010C0C, 0x0004 Bytes, ...) -- CPU_ReadMem(4 bytes @ 0x40010C0C) -- Data:  10 00 00 00  returns 0x00 (0002ms, 1056ms total)
T00D8 001:477 JLINK_ReadMem (0x40010C0C, 0x0004 Bytes, ...) -- CPU_ReadMem(4 bytes @ 0x40010C0C) -- Data:  10 00 00 00  returns 0x00 (0003ms, 1059ms total)
T00D8 001:480 JLINK_ReadMem (0x40010C0C, 0x0004 Bytes, ...) -- CPU_ReadMem(4 bytes @ 0x40010C0C) -- Data:  10 00 00 00  returns 0x00 (0002ms, 1061ms total)
T00D8 001:491 JLINK_ReadMem (0x40021000, 0x002C Bytes, ...) -- CPU_ReadMem(44 bytes @ 0x40021000) -- Data:  83 48 00 00 00 00 00 00 00 00 00 00 00 00 00 00 ...  returns 0x00 (0003ms, 1064ms total)
T00D8 001:494 JLINK_ReadMem (0x4002102C, 0x0004 Bytes, ...) -- CPU_ReadMem(4 bytes @ 0x4002102C) -- Data:  00 00 00 00  returns 0x00 (0003ms, 1067ms total)
T00D8 001:497 JLINK_ReadMem (0x40021000, 0x0004 Bytes, ...) -- CPU_ReadMem(4 bytes @ 0x40021000) -- Data:  83 48 00 00  returns 0x00 (0003ms, 1070ms total)
T00D8 001:500 JLINK_ReadMem (0x40021000, 0x0004 Bytes, ...) -- CPU_ReadMem(4 bytes @ 0x40021000) -- Data:  83 48 00 00  returns 0x00 (0003ms, 1073ms total)
T00D8 001:504 JLINK_ReadMem (0x40021000, 0x0004 Bytes, ...) -- CPU_ReadMem(4 bytes @ 0x40021000) -- Data:  83 48 00 00  returns 0x00 (0003ms, 1077ms total)
T00D8 001:507 JLINK_ReadMem (0x40021000, 0x0004 Bytes, ...) -- CPU_ReadMem(4 bytes @ 0x40021000) -- Data:  83 48 00 00  returns 0x00 (0004ms, 1081ms total)
T00D8 001:511 JLINK_ReadMem (0x40021000, 0x0004 Bytes, ...) -- CPU_ReadMem(4 bytes @ 0x40021000) -- Data:  83 48 00 00  returns 0x00 (0002ms, 1083ms total)
T00D8 001:513 JLINK_ReadMem (0x40021000, 0x0004 Bytes, ...) -- CPU_ReadMem(4 bytes @ 0x40021000) -- Data:  83 48 00 00  returns 0x00 (0003ms, 1086ms total)
T00D8 001:516 JLINK_ReadMem (0x40021000, 0x0004 Bytes, ...) -- CPU_ReadMem(4 bytes @ 0x40021000) -- Data:  83 48 00 00  returns 0x00 (0002ms, 1088ms total)
T00D8 001:519 JLINK_ReadMem (0x40021000, 0x0004 Bytes, ...) -- CPU_ReadMem(4 bytes @ 0x40021000) -- Data:  83 48 00 00  returns 0x00 (0002ms, 1091ms total)
T00D8 001:521 JLINK_ReadMem (0x40021000, 0x0004 Bytes, ...) -- CPU_ReadMem(4 bytes @ 0x40021000) -- Data:  83 48 00 00  returns 0x00 (0002ms, 1093ms total)
T00D8 001:524 JLINK_ReadMem (0x40021000, 0x0004 Bytes, ...) -- CPU_ReadMem(4 bytes @ 0x40021000) -- Data:  83 48 00 00  returns 0x00 (0002ms, 1096ms total)
T00D8 001:526 JLINK_ReadMem (0x40021000, 0x0004 Bytes, ...) -- CPU_ReadMem(4 bytes @ 0x40021000) -- Data:  83 48 00 00  returns 0x00 (0003ms, 1099ms total)
T00D8 001:529 JLINK_ReadMem (0x40021000, 0x0004 Bytes, ...) -- CPU_ReadMem(4 bytes @ 0x40021000) -- Data:  83 48 00 00  returns 0x00 (0002ms, 1101ms total)
T00D8 001:532 JLINK_ReadMem (0x40021000, 0x0004 Bytes, ...) -- CPU_ReadMem(4 bytes @ 0x40021000) -- Data:  83 48 00 00  returns 0x00 (0003ms, 1105ms total)
T00D8 001:535 JLINK_ReadMem (0x40021000, 0x0004 Bytes, ...) -- CPU_ReadMem(4 bytes @ 0x40021000) -- Data:  83 48 00 00  returns 0x00 (0004ms, 1109ms total)
T00D8 001:539 JLINK_ReadMem (0x40021000, 0x0004 Bytes, ...) -- CPU_ReadMem(4 bytes @ 0x40021000) -- Data:  83 48 00 00  returns 0x00 (0003ms, 1112ms total)
T00D8 001:543 JLINK_ReadMem (0x40021014, 0x0004 Bytes, ...) -- CPU_ReadMem(4 bytes @ 0x40021014) -- Data:  14 00 00 00  returns 0x00 (0002ms, 1115ms total)
T00D8 001:545 JLINK_ReadMem (0x40021014, 0x0004 Bytes, ...) -- CPU_ReadMem(4 bytes @ 0x40021014) -- Data:  14 00 00 00  returns 0x00 (0002ms, 1117ms total)
T00D8 001:547 JLINK_ReadMem (0x40021014, 0x0004 Bytes, ...) -- CPU_ReadMem(4 bytes @ 0x40021014) -- Data:  14 00 00 00  returns 0x00 (0003ms, 1120ms total)
T00D8 001:550 JLINK_ReadMem (0x40021014, 0x0004 Bytes, ...) -- CPU_ReadMem(4 bytes @ 0x40021014) -- Data:  14 00 00 00  returns 0x00 (0002ms, 1122ms total)
T00D8 001:553 JLINK_ReadMem (0x40021014, 0x0004 Bytes, ...) -- CPU_ReadMem(4 bytes @ 0x40021014) -- Data:  14 00 00 00  returns 0x00 (0002ms, 1125ms total)
T00D8 001:555 JLINK_ReadMem (0x40021014, 0x0004 Bytes, ...) -- CPU_ReadMem(4 bytes @ 0x40021014) -- Data:  14 00 00 00  returns 0x00 (0003ms, 1128ms total)
T00D8 001:558 JLINK_ReadMem (0x40021014, 0x0004 Bytes, ...) -- CPU_ReadMem(4 bytes @ 0x40021014) -- Data:  14 00 00 00  returns 0x00 (0003ms, 1131ms total)
T00D8 001:561 JLINK_ReadMem (0x40021024, 0x0004 Bytes, ...) -- CPU_ReadMem(4 bytes @ 0x40021024) -- Data:  00 00 00 1C  returns 0x00 (0003ms, 1134ms total)
T00D8 001:564 JLINK_ReadMem (0x40021024, 0x0004 Bytes, ...) -- CPU_ReadMem(4 bytes @ 0x40021024) -- Data:  00 00 00 1C  returns 0x00 (0004ms, 1138ms total)
T00D8 001:568 JLINK_ReadMem (0x40021024, 0x0004 Bytes, ...) -- CPU_ReadMem(4 bytes @ 0x40021024) -- Data:  00 00 00 1C  returns 0x00 (0003ms, 1141ms total)
T00D8 001:572 JLINK_ReadMem (0x40021024, 0x0004 Bytes, ...) -- CPU_ReadMem(4 bytes @ 0x40021024) -- Data:  00 00 00 1C  returns 0x00 (0003ms, 1145ms total)
T00D8 001:575 JLINK_ReadMem (0x40021024, 0x0004 Bytes, ...) -- CPU_ReadMem(4 bytes @ 0x40021024) -- Data:  00 00 00 1C  returns 0x00 (0004ms, 1149ms total)
T00D8 001:579 JLINK_ReadMem (0x40021024, 0x0004 Bytes, ...) -- CPU_ReadMem(4 bytes @ 0x40021024) -- Data:  00 00 00 1C  returns 0x00 (0003ms, 1152ms total)
T00D8 001:582 JLINK_ReadMem (0x40021024, 0x0004 Bytes, ...) -- CPU_ReadMem(4 bytes @ 0x40021024) -- Data:  00 00 00 1C  returns 0x00 (0004ms, 1156ms total)
T00D8 001:586 JLINK_ReadMem (0x40021024, 0x0004 Bytes, ...) -- CPU_ReadMem(4 bytes @ 0x40021024) -- Data:  00 00 00 1C  returns 0x00 (0003ms, 1159ms total)
T00D8 001:590 JLINK_ReadMem (0x40021024, 0x0004 Bytes, ...) -- CPU_ReadMem(4 bytes @ 0x40021024) -- Data:  00 00 00 1C  returns 0x00 (0003ms, 1163ms total)
T00D8 001:593 JLINK_ReadMem (0x40021024, 0x0004 Bytes, ...) -- CPU_ReadMem(4 bytes @ 0x40021024) -- Data:  00 00 00 1C  returns 0x00 (0004ms, 1167ms total)
T00D8 001:613 JLINK_ReadMem (0x40000400, 0x002C Bytes, ...) -- CPU_ReadMem(44 bytes @ 0x40000400) -- Data:  00 00 00 00 00 00 00 00 00 00 00 00 00 00 00 00 ...  returns 0x00 (0005ms, 1173ms total)
T00D8 001:618 JLINK_ReadMem (0x4000042C, 0x0004 Bytes, ...) -- CPU_ReadMem(4 bytes @ 0x4000042C) -- Data:  00 00 00 00  returns 0x00 (0003ms, 1176ms total)
T00D8 001:621 JLINK_ReadMem (0x40000434, 0x000C Bytes, ...) -- CPU_ReadMem(12 bytes @ 0x40000434) -- Data:  00 00 00 00 00 00 00 00 00 00 00 00  returns 0x00 (0003ms, 1179ms total)
T00D8 001:624 JLINK_ReadMem (0x40000440, 0x0004 Bytes, ...) -- CPU_ReadMem(4 bytes @ 0x40000440) -- Data:  00 00 00 00  returns 0x00 (0003ms, 1182ms total)
T00D8 001:627 JLINK_ReadMem (0x40000448, 0x0004 Bytes, ...) -- CPU_ReadMem(4 bytes @ 0x40000448) -- Data:  00 00 00 00  returns 0x00 (0002ms, 1184ms total)
T00D8 001:629 JLINK_ReadMem (0x4000044C, 0x0004 Bytes, ...) -- CPU_ReadMem(4 bytes @ 0x4000044C) -- Data:  00 00 00 00  returns 0x00 (0003ms, 1187ms total)
T00D8 001:646 JLINK_ReadMem (0x40000800, 0x002C Bytes, ...) -- CPU_ReadMem(44 bytes @ 0x40000800) -- Data:  00 00 00 00 00 00 00 00 00 00 00 00 00 00 00 00 ...  returns 0x00 (0004ms, 1191ms total)
T00D8 001:650 JLINK_ReadMem (0x4000082C, 0x0004 Bytes, ...) -- CPU_ReadMem(4 bytes @ 0x4000082C) -- Data:  00 00 00 00  returns 0x00 (0003ms, 1194ms total)
T00D8 001:653 JLINK_ReadMem (0x40000834, 0x000C Bytes, ...) -- CPU_ReadMem(12 bytes @ 0x40000834) -- Data:  00 00 00 00 00 00 00 00 00 00 00 00  returns 0x00 (0002ms, 1196ms total)
T00D8 001:656 JLINK_ReadMem (0x40000840, 0x0004 Bytes, ...) -- CPU_ReadMem(4 bytes @ 0x40000840) -- Data:  00 00 00 00  returns 0x00 (0002ms, 1199ms total)
T00D8 001:658 JLINK_ReadMem (0x40000848, 0x0004 Bytes, ...) -- CPU_ReadMem(4 bytes @ 0x40000848) -- Data:  00 00 00 00  returns 0x00 (0003ms, 1202ms total)
T00D8 001:661 JLINK_ReadMem (0x4000084C, 0x0004 Bytes, ...) -- CPU_ReadMem(4 bytes @ 0x4000084C) -- Data:  00 00 00 00  returns 0x00 (0002ms, 1204ms total)
T00D8 001:673 JLINK_ReadMem (0x40004800, 0x0018 Bytes, ...) -- CPU_ReadMem(24 bytes @ 0x40004800) -- Data:  00 00 00 00 00 00 00 00 00 00 00 00 00 00 00 00 ...  returns 0x00 (0004ms, 1208ms total)
T00D8 001:678 JLINK_ReadMem (0x40004818, 0x0004 Bytes, ...) -- CPU_ReadMem(4 bytes @ 0x40004818) -- Data:  00 00 00 00  returns 0x00 (0002ms, 1211ms total)
T00D8 002:237 JLINK_ReadMem (0x200000AC, 0x0004 Bytes, ...) -- CPU_ReadMem(64 bytes @ 0x20000080) -- Updating C cache (64 bytes @ 0x20000080) -- Read from C cache (4 bytes @ 0x200000AC) -- Data:  00 00 00 00  returns 0x00 (0014ms, 1225ms total)
T00D8 002:253 JLINK_ReadMem (0x200000B0, 0x0004 Bytes, ...) -- Read from C cache (4 bytes @ 0x200000B0) -- Data:  00 00 00 00  returns 0x00 (0002ms, 1227ms total)
T00D8 002:258 JLINK_ReadMem (0x200000A8, 0x0004 Bytes, ...) -- Read from C cache (4 bytes @ 0x200000A8) -- Data:  00 00 00 00  returns 0x00 (0001ms, 1228ms total)
T00D8 002:278 JLINK_ReadMem (0x200000DC, 0x0001 Bytes, ...) -- CPU_ReadMem(64 bytes @ 0x200000C0) -- Updating C cache (64 bytes @ 0x200000C0) -- Read from C cache (1 bytes @ 0x200000DC) -- Data:  0A  returns 0x00 (0009ms, 1237ms total)
T00D8 002:307 JLINK_ReadMem (0x40021000, 0x002C Bytes, ...) -- CPU_ReadMem(44 bytes @ 0x40021000) -- Data:  83 48 00 00 00 00 00 00 00 00 00 00 00 00 00 00 ...  returns 0x00 (0002ms, 1239ms total)
T00D8 002:310 JLINK_ReadMem (0x4002102C, 0x0004 Bytes, ...) -- CPU_ReadMem(4 bytes @ 0x4002102C) -- Data:  00 00 00 00  returns 0x00 (0001ms, 1241ms total)
T00D8 002:312 JLINK_ReadMem (0x40010C00, 0x0018 Bytes, ...) -- CPU_ReadMem(24 bytes @ 0x40010C00) -- Data:  44 44 48 44 44 44 44 44 00 00 00 00 10 00 00 00 ...  returns 0x00 (0003ms, 1245ms total)
T00D8 002:315 JLINK_ReadMem (0x40010C18, 0x0004 Bytes, ...) -- CPU_ReadMem(4 bytes @ 0x40010C18) -- Data:  00 00 00 00  returns 0x00 (0002ms, 1247ms total)
T00D8 002:317 JLINK_ReadMem (0x40004800, 0x0018 Bytes, ...) -- CPU_ReadMem(24 bytes @ 0x40004800) -- Data:  00 00 00 00 00 00 00 00 00 00 00 00 00 00 00 00 ...  returns 0x00 (0003ms, 1250ms total)
T00D8 002:320 JLINK_ReadMem (0x40004818, 0x0004 Bytes, ...) -- CPU_ReadMem(4 bytes @ 0x40004818) -- Data:  00 00 00 00  returns 0x00 (0002ms, 1252ms total)
T00D8 002:323 JLINK_ReadMem (0x40000800, 0x002C Bytes, ...) -- CPU_ReadMem(44 bytes @ 0x40000800) -- Data:  00 00 00 00 00 00 00 00 00 00 00 00 00 00 00 00 ...  returns 0x00 (0002ms, 1255ms total)
T00D8 002:325 JLINK_ReadMem (0x4000082C, 0x0004 Bytes, ...) -- CPU_ReadMem(4 bytes @ 0x4000082C) -- Data:  00 00 00 00  returns 0x00 (0003ms, 1258ms total)
T00D8 002:328 JLINK_ReadMem (0x40000834, 0x000C Bytes, ...) -- CPU_ReadMem(12 bytes @ 0x40000834) -- Data:  00 00 00 00 00 00 00 00 00 00 00 00  returns 0x00 (0002ms, 1260ms total)
T00D8 002:331 JLINK_ReadMem (0x40000840, 0x0004 Bytes, ...) -- CPU_ReadMem(4 bytes @ 0x40000840) -- Data:  00 00 00 00  returns 0x00 (0002ms, 1263ms total)
T00D8 002:333 JLINK_ReadMem (0x40000848, 0x0004 Bytes, ...) -- CPU_ReadMem(4 bytes @ 0x40000848) -- Data:  00 00 00 00  returns 0x00 (0003ms, 1266ms total)
T00D8 002:336 JLINK_ReadMem (0x4000084C, 0x0004 Bytes, ...) -- CPU_ReadMem(4 bytes @ 0x4000084C) -- Data:  00 00 00 00  returns 0x00 (0003ms, 1269ms total)
T00D8 002:340 JLINK_ReadMem (0x40000400, 0x002C Bytes, ...) -- CPU_ReadMem(44 bytes @ 0x40000400) -- Data:  00 00 00 00 00 00 00 00 00 00 00 00 00 00 00 00 ...  returns 0x00 (0002ms, 1272ms total)
T00D8 002:342 JLINK_ReadMem (0x4000042C, 0x0004 Bytes, ...) -- CPU_ReadMem(4 bytes @ 0x4000042C) -- Data:  00 00 00 00  returns 0x00 (0003ms, 1275ms total)
T00D8 002:345 JLINK_ReadMem (0x40000434, 0x000C Bytes, ...) -- CPU_ReadMem(12 bytes @ 0x40000434) -- Data:  00 00 00 00 00 00 00 00 00 00 00 00  returns 0x00 (0003ms, 1278ms total)
T00D8 002:348 JLINK_ReadMem (0x40000440, 0x0004 Bytes, ...) -- CPU_ReadMem(4 bytes @ 0x40000440) -- Data:  00 00 00 00  returns 0x00 (0002ms, 1280ms total)
T00D8 002:350 JLINK_ReadMem (0x40000448, 0x0004 Bytes, ...) -- CPU_ReadMem(4 bytes @ 0x40000448) -- Data:  00 00 00 00  returns 0x00 (0003ms, 1283ms total)
T00D8 002:353 JLINK_ReadMem (0x4000044C, 0x0004 Bytes, ...) -- CPU_ReadMem(4 bytes @ 0x4000044C) -- Data:  00 00 00 00  returns 0x00 (0003ms, 1286ms total)
T00D8 002:367 JLINK_ReadMem (0x40021000, 0x002C Bytes, ...) -- CPU_ReadMem(44 bytes @ 0x40021000) -- Data:  83 48 00 00 00 00 00 00 00 00 00 00 00 00 00 00 ...  returns 0x00 (0004ms, 1290ms total)
T00D8 002:371 JLINK_ReadMem (0x4002102C, 0x0004 Bytes, ...) -- CPU_ReadMem(4 bytes @ 0x4002102C) -- Data:  00 00 00 00  returns 0x00 (0002ms, 1292ms total)
T00D8 002:373 JLINK_ReadMem (0x40010C00, 0x0018 Bytes, ...) -- CPU_ReadMem(24 bytes @ 0x40010C00) -- Data:  44 44 48 44 44 44 44 44 00 00 00 00 10 00 00 00 ...  returns 0x00 (0003ms, 1295ms total)
T00D8 002:376 JLINK_ReadMem (0x40010C18, 0x0004 Bytes, ...) -- CPU_ReadMem(4 bytes @ 0x40010C18) -- Data:  00 00 00 00  returns 0x00 (0003ms, 1298ms total)
T00D8 002:379 JLINK_ReadMem (0x40004800, 0x0018 Bytes, ...) -- CPU_ReadMem(24 bytes @ 0x40004800) -- Data:  00 00 00 00 00 00 00 00 00 00 00 00 00 00 00 00 ...  returns 0x00 (0002ms, 1300ms total)
T00D8 002:381 JLINK_ReadMem (0x40004818, 0x0004 Bytes, ...) -- CPU_ReadMem(4 bytes @ 0x40004818) -- Data:  00 00 00 00  returns 0x00 (0003ms, 1303ms total)
T00D8 002:384 JLINK_ReadMem (0x40000800, 0x002C Bytes, ...) -- CPU_ReadMem(44 bytes @ 0x40000800) -- Data:  00 00 00 00 00 00 00 00 00 00 00 00 00 00 00 00 ...  returns 0x00 (0003ms, 1306ms total)
T00D8 002:387 JLINK_ReadMem (0x4000082C, 0x0004 Bytes, ...) -- CPU_ReadMem(4 bytes @ 0x4000082C) -- Data:  00 00 00 00  returns 0x00 (0003ms, 1309ms total)
T00D8 002:390 JLINK_ReadMem (0x40000834, 0x000C Bytes, ...) -- CPU_ReadMem(12 bytes @ 0x40000834) -- Data:  00 00 00 00 00 00 00 00 00 00 00 00  returns 0x00 (0002ms, 1311ms total)
T00D8 002:393 JLINK_ReadMem (0x40000840, 0x0004 Bytes, ...) -- CPU_ReadMem(4 bytes @ 0x40000840) -- Data:  00 00 00 00  returns 0x00 (0002ms, 1314ms total)
T00D8 002:395 JLINK_ReadMem (0x40000848, 0x0004 Bytes, ...) -- CPU_ReadMem(4 bytes @ 0x40000848) -- Data:  00 00 00 00  returns 0x00 (0003ms, 1317ms total)
T00D8 002:398 JLINK_ReadMem (0x4000084C, 0x0004 Bytes, ...) -- CPU_ReadMem(4 bytes @ 0x4000084C) -- Data:  00 00 00 00  returns 0x00 (0002ms, 1319ms total)
T00D8 002:400 JLINK_ReadMem (0x40000400, 0x002C Bytes, ...) -- CPU_ReadMem(44 bytes @ 0x40000400) -- Data:  00 00 00 00 00 00 00 00 00 00 00 00 00 00 00 00 ...  returns 0x00 (0004ms, 1323ms total)
T00D8 002:404 JLINK_ReadMem (0x4000042C, 0x0004 Bytes, ...) -- CPU_ReadMem(4 bytes @ 0x4000042C) -- Data:  00 00 00 00  returns 0x00 (0002ms, 1325ms total)
T00D8 002:406 JLINK_ReadMem (0x40000434, 0x000C Bytes, ...) -- CPU_ReadMem(12 bytes @ 0x40000434) -- Data:  00 00 00 00 00 00 00 00 00 00 00 00  returns 0x00 (0003ms, 1328ms total)
T00D8 002:409 JLINK_ReadMem (0x40000440, 0x0004 Bytes, ...) -- CPU_ReadMem(4 bytes @ 0x40000440) -- Data:  00 00 00 00  returns 0x00 (0002ms, 1330ms total)
T00D8 002:412 JLINK_ReadMem (0x40000448, 0x0004 Bytes, ...) -- CPU_ReadMem(4 bytes @ 0x40000448) -- Data:  00 00 00 00  returns 0x00 (0002ms, 1333ms total)
T00D8 002:414 JLINK_ReadMem (0x4000044C, 0x0004 Bytes, ...) -- CPU_ReadMem(4 bytes @ 0x4000044C) -- Data:  00 00 00 00  returns 0x00 (0003ms, 1336ms total)
T0768 002:949 JLINK_Go() -- CPU_WriteMem(4 bytes @ 0xE0001004) (0019ms, 1355ms total)
T0768 003:069 JLINK_IsHalted()  returns FALSE (0006ms, 1361ms total)
T0768 003:175 JLINK_IsHalted()  returns FALSE (0012ms, 1367ms total)
T0768 003:288 JLINK_IsHalted()  returns FALSE (0017ms, 1372ms total)
T0768 003:406 JLINK_IsHalted()  returns FALSE (0017ms, 1372ms total)
T0768 003:523 JLINK_ReadMemU32(0xE0001004, 0x0001 Items, ...) -- CPU is running -- CPU_ReadMem(4 bytes @ 0xE0001004) -- Data:  97 1B 72 02  returns 0x01 (0010ms, 1365ms total)
T00D8 003:535 JLINK_ReadMem (0x200000AC, 0x0004 Bytes, ...) -- CPU is running -- CPU_ReadMem(4 bytes @ 0x200000AC) -- Data:  00 00 00 00  returns 0x00 (0004ms, 1369ms total)
T00D8 003:540 JLINK_ReadMem (0x200000B0, 0x0004 Bytes, ...) -- CPU is running -- CPU_ReadMem(4 bytes @ 0x200000B0) -- Data:  00 00 00 00  returns 0x00 (0003ms, 1373ms total)
T00D8 003:543 JLINK_ReadMem (0x200000A8, 0x0004 Bytes, ...) -- CPU is running -- CPU_ReadMem(4 bytes @ 0x200000A8) -- Data:  00 00 00 00  returns 0x00 (0004ms, 1377ms total)
T00D8 003:549 JLINK_ReadMem (0x200000DC, 0x0001 Bytes, ...) -- CPU is running -- CPU_ReadMem(1 bytes @ 0x200000DC) -- Data:  0A  returns 0x00 (0003ms, 1380ms total)
T00D8 003:553 JLINK_ReadMem (0x40021000, 0x002C Bytes, ...) -- CPU is running -- CPU_ReadMem(44 bytes @ 0x40021000) -- Data:  83 48 03 03 0A C4 1D 00 00 00 00 00 00 00 00 00 ...  returns 0x00 (0006ms, 1387ms total)
T00D8 003:559 JLINK_ReadMem (0x4002102C, 0x0004 Bytes, ...) -- CPU is running -- CPU_ReadMem(4 bytes @ 0x4002102C) -- Data:  00 00 00 00  returns 0x00 (0004ms, 1391ms total)
T00D8 003:563 JLINK_ReadMem (0x40021000, 0x0004 Bytes, ...) -- CPU is running -- CPU_ReadMem(4 bytes @ 0x40021000) -- Data:  83 48 03 03  returns 0x00 (0003ms, 1394ms total)
T00D8 003:567 JLINK_ReadMem (0x40021000, 0x0004 Bytes, ...) -- CPU is running -- CPU_ReadMem(4 bytes @ 0x40021000) -- Data:  83 48 03 03  returns 0x00 (0005ms, 1400ms total)
T00D8 003:573 JLINK_ReadMem (0x40021000, 0x0004 Bytes, ...) -- CPU is running -- CPU_ReadMem(4 bytes @ 0x40021000) -- Data:  83 48 03 03  returns 0x00 (0003ms, 1404ms total)
T00D8 003:576 JLINK_ReadMem (0x40021000, 0x0004 Bytes, ...) -- CPU is running -- CPU_ReadMem(4 bytes @ 0x40021000) -- Data:  83 48 03 03  returns 0x00 (0003ms, 1407ms total)
T00D8 003:580 JLINK_ReadMem (0x40021000, 0x0004 Bytes, ...) -- CPU is running -- CPU_ReadMem(4 bytes @ 0x40021000) -- Data:  83 48 03 03  returns 0x00 (0003ms, 1411ms total)
T00D8 003:584 JLINK_ReadMem (0x40021000, 0x0004 Bytes, ...) -- CPU is running -- CPU_ReadMem(4 bytes @ 0x40021000) -- Data:  83 48 03 03  returns 0x00 (0005ms, 1417ms total)
T00D8 003:590 JLINK_ReadMem (0x40021000, 0x0004 Bytes, ...) -- CPU is running -- CPU_ReadMem(4 bytes @ 0x40021000) -- Data:  83 48 03 03  returns 0x00 (0005ms, 1423ms total)
T00D8 003:595 JLINK_ReadMem (0x40021000, 0x0004 Bytes, ...) -- CPU is running -- CPU_ReadMem(4 bytes @ 0x40021000) -- Data:  83 48 03 03  returns 0x00 (0003ms, 1426ms total)
T00D8 003:599 JLINK_ReadMem (0x40021000, 0x0004 Bytes, ...) -- CPU is running -- CPU_ReadMem(4 bytes @ 0x40021000) -- Data:  83 48 03 03  returns 0x00 (0003ms, 1430ms total)
T00D8 003:603 JLINK_ReadMem (0x40021000, 0x0004 Bytes, ...) -- CPU is running -- CPU_ReadMem(4 bytes @ 0x40021000) -- Data:  83 48 03 03  returns 0x00 (0003ms, 1434ms total)
T00D8 003:606 JLINK_ReadMem (0x40021000, 0x0004 Bytes, ...) -- CPU is running -- CPU_ReadMem(4 bytes @ 0x40021000) -- Data:  83 48 03 03  returns 0x00 (0003ms, 1437ms total)
T00D8 003:610 JLINK_ReadMem (0x40021000, 0x0004 Bytes, ...) -- CPU is running -- CPU_ReadMem(4 bytes @ 0x40021000) -- Data:  83 48 03 03  returns 0x00 (0003ms, 1441ms total)
T00D8 003:613 JLINK_ReadMem (0x40021000, 0x0004 Bytes, ...) -- CPU is running -- CPU_ReadMem(4 bytes @ 0x40021000) -- Data:  83 48 03 03  returns 0x00 (0007ms, 1448ms total)
T00D8 003:621 JLINK_ReadMem (0x40021000, 0x0004 Bytes, ...) -- CPU is running -- CPU_ReadMem(4 bytes @ 0x40021000) -- Data:  83 48 03 03  returns 0x00 (0003ms, 1452ms total)
T00D8 003:624 JLINK_ReadMem (0x40021000, 0x0004 Bytes, ...) -- CPU is running -- CPU_ReadMem(4 bytes @ 0x40021000) -- Data:  83 48 03 03  returns 0x00 (0004ms, 1456ms total)
T00D8 003:628 JLINK_ReadMem (0x40021004, 0x0004 Bytes, ...) -- CPU is running -- CPU_ReadMem(4 bytes @ 0x40021004) -- Data:  0A C4 1D 00  returns 0x00 (0003ms, 1459ms total)
T00D8 003:632 JLINK_ReadMem (0x40021004, 0x0004 Bytes, ...) -- CPU is running -- CPU_ReadMem(4 bytes @ 0x40021004) -- Data:  0A C4 1D 00  returns 0x00 (0003ms, 1463ms total)
T00D8 003:635 JLINK_ReadMem (0x40021004, 0x0004 Bytes, ...) -- CPU is running -- CPU_ReadMem(4 bytes @ 0x40021004) -- Data:  0A C4 1D 00  returns 0x00 (0004ms, 1467ms total)
T00D8 003:639 JLINK_ReadMem (0x40021004, 0x0004 Bytes, ...) -- CPU is running -- CPU_ReadMem(4 bytes @ 0x40021004) -- Data:  0A C4 1D 00  returns 0x00 (0004ms, 1471ms total)
T00D8 003:643 JLINK_ReadMem (0x40021004, 0x0004 Bytes, ...) -- CPU is running -- CPU_ReadMem(4 bytes @ 0x40021004) -- Data:  0A C4 1D 00  returns 0x00 (0003ms, 1474ms total)
T00D8 003:646 JLINK_ReadMem (0x40021004, 0x0004 Bytes, ...) -- CPU is running -- CPU_ReadMem(4 bytes @ 0x40021004) -- Data:  0A C4 1D 00  returns 0x00 (0003ms, 1477ms total)
T00D8 003:650 JLINK_ReadMem (0x40021004, 0x0004 Bytes, ...) -- CPU is running -- CPU_ReadMem(4 bytes @ 0x40021004) -- Data:  0A C4 1D 00  returns 0x00 (0003ms, 1481ms total)
T00D8 003:653 JLINK_ReadMem (0x40021004, 0x0004 Bytes, ...) -- CPU is running -- CPU_ReadMem(4 bytes @ 0x40021004) -- Data:  0A C4 1D 00  returns 0x00 (0004ms, 1485ms total)
T00D8 003:657 JLINK_ReadMem (0x40021004, 0x0004 Bytes, ...) -- CPU is running -- CPU_ReadMem(4 bytes @ 0x40021004) -- Data:  0A C4 1D 00  returns 0x00 (0003ms, 1488ms total)
T00D8 003:660 JLINK_ReadMem (0x40021004, 0x0004 Bytes, ...) -- CPU is running -- CPU_ReadMem(4 bytes @ 0x40021004) -- Data:  0A C4 1D 00  returns 0x00 (0003ms, 1491ms total)
T00D8 003:663 JLINK_ReadMem (0x40021004, 0x0004 Bytes, ...) -- CPU is running -- CPU_ReadMem(4 bytes @ 0x40021004) -- Data:  0A C4 1D 00  returns 0x00 (0003ms, 1494ms total)
T00D8 003:666 JLINK_ReadMem (0x40021004, 0x0004 Bytes, ...) -- CPU is running -- CPU_ReadMem(4 bytes @ 0x40021004) -- Data:  0A C4 1D 00  returns 0x00 (0003ms, 1497ms total)
T00D8 003:670 JLINK_ReadMem (0x40021014, 0x0004 Bytes, ...) -- CPU is running -- CPU_ReadMem(4 bytes @ 0x40021014) -- Data:  15 00 00 00  returns 0x00 (0003ms, 1501ms total)
T00D8 003:673 JLINK_ReadMem (0x40021014, 0x0004 Bytes, ...) -- CPU is running -- CPU_ReadMem(4 bytes @ 0x40021014) -- Data:  15 00 00 00  returns 0x00 (0003ms, 1504ms total)
T00D8 003:676 JLINK_ReadMem (0x40021014, 0x0004 Bytes, ...) -- CPU is running -- CPU_ReadMem(4 bytes @ 0x40021014) -- Data:  15 00 00 00  returns 0x00 (0002ms, 1506ms total)
T00D8 003:678 JLINK_ReadMem (0x40021014, 0x0004 Bytes, ...) -- CPU is running -- CPU_ReadMem(4 bytes @ 0x40021014) -- Data:  15 00 00 00  returns 0x00 (0003ms, 1509ms total)
T00D8 003:681 JLINK_ReadMem (0x40021014, 0x0004 Bytes, ...) -- CPU is running -- CPU_ReadMem(4 bytes @ 0x40021014) -- Data:  15 00 00 00  returns 0x00 (0002ms, 1511ms total)
T00D8 003:683 JLINK_ReadMem (0x40021014, 0x0004 Bytes, ...) -- CPU is running -- CPU_ReadMem(4 bytes @ 0x40021014) -- Data:  15 00 00 00  returns 0x00 (0003ms, 1514ms total)
T00D8 003:686 JLINK_ReadMem (0x40021014, 0x0004 Bytes, ...) -- CPU is running -- CPU_ReadMem(4 bytes @ 0x40021014) -- Data:  15 00 00 00  returns 0x00 (0002ms, 1516ms total)
T00D8 003:689 JLINK_ReadMem (0x40021018, 0x0004 Bytes, ...) -- CPU is running -- CPU_ReadMem(4 bytes @ 0x40021018) -- Data:  11 02 00 00  returns 0x00 (0002ms, 1519ms total)
T00D8 003:691 JLINK_ReadMem (0x40021018, 0x0004 Bytes, ...) -- CPU is running -- CPU_ReadMem(4 bytes @ 0x40021018) -- Data:  11 02 00 00  returns 0x00 (0002ms, 1521ms total)
T00D8 003:694 JLINK_ReadMem (0x40021018, 0x0004 Bytes, ...) -- CPU is running -- CPU_ReadMem(4 bytes @ 0x40021018) -- Data:  11 02 00 00  returns 0x00 (0002ms, 1524ms total)
T00D8 003:696 JLINK_ReadMem (0x40021018, 0x0004 Bytes, ...) -- CPU is running -- CPU_ReadMem(4 bytes @ 0x40021018) -- Data:  11 02 00 00  returns 0x00 (0003ms, 1527ms total)
T00D8 003:699 JLINK_ReadMem (0x40021018, 0x0004 Bytes, ...) -- CPU is running -- CPU_ReadMem(4 bytes @ 0x40021018) -- Data:  11 02 00 00  returns 0x00 (0002ms, 1529ms total)
T00D8 003:702 JLINK_ReadMem (0x40021018, 0x0004 Bytes, ...) -- CPU is running -- CPU_ReadMem(4 bytes @ 0x40021018) -- Data:  11 02 00 00  returns 0x00 (0002ms, 1532ms total)
T00D8 003:704 JLINK_ReadMem (0x40021018, 0x0004 Bytes, ...) -- CPU is running -- CPU_ReadMem(4 bytes @ 0x40021018) -- Data:  11 02 00 00  returns 0x00 (0003ms, 1535ms total)
T00D8 003:707 JLINK_ReadMem (0x40021018, 0x0004 Bytes, ...) -- CPU is running -- CPU_ReadMem(4 bytes @ 0x40021018) -- Data:  11 02 00 00  returns 0x00 (0003ms, 1538ms total)
T00D8 003:710 JLINK_ReadMem (0x40021018, 0x0004 Bytes, ...) -- CPU is running -- CPU_ReadMem(4 bytes @ 0x40021018) -- Data:  11 02 00 00  returns 0x00 (0003ms, 1541ms total)
T00D8 003:713 JLINK_ReadMem (0x40021018, 0x0004 Bytes, ...) -- CPU is running -- CPU_ReadMem(4 bytes @ 0x40021018) -- Data:  11 02 00 00  returns 0x00 (0002ms, 1543ms total)
T00D8 003:716 JLINK_ReadMem (0x40021018, 0x0004 Bytes, ...) -- CPU is running -- CPU_ReadMem(4 bytes @ 0x40021018) -- Data:  11 02 00 00  returns 0x00 (0002ms, 1546ms total)
T00D8 003:718 JLINK_ReadMem (0x40021018, 0x0004 Bytes, ...) -- CPU is running -- CPU_ReadMem(4 bytes @ 0x40021018) -- Data:  11 02 00 00  returns 0x00 (0003ms, 1549ms total)
T00D8 003:721 JLINK_ReadMem (0x4002101C, 0x0004 Bytes, ...) -- CPU is running -- CPU_ReadMem(4 bytes @ 0x4002101C) -- Data:  00 00 04 00  returns 0x00 (0002ms, 1551ms total)
T00D8 003:723 JLINK_ReadMem (0x4002101C, 0x0004 Bytes, ...) -- CPU is running -- CPU_ReadMem(4 bytes @ 0x4002101C) -- Data:  00 00 04 00  returns 0x00 (0003ms, 1554ms total)
T00D8 003:726 JLINK_ReadMem (0x4002101C, 0x0004 Bytes, ...) -- CPU is running -- CPU_ReadMem(4 bytes @ 0x4002101C) -- Data:  00 00 04 00  returns 0x00 (0002ms, 1556ms total)
T00D8 003:728 JLINK_ReadMem (0x4002101C, 0x0004 Bytes, ...) -- CPU is running -- CPU_ReadMem(4 bytes @ 0x4002101C) -- Data:  00 00 04 00  returns 0x00 (0003ms, 1559ms total)
T00D8 003:731 JLINK_ReadMem (0x4002101C, 0x0004 Bytes, ...) -- CPU is running -- CPU_ReadMem(4 bytes @ 0x4002101C) -- Data:  00 00 04 00  returns 0x00 (0003ms, 1562ms total)
T00D8 003:734 JLINK_ReadMem (0x4002101C, 0x0004 Bytes, ...) -- CPU is running -- CPU_ReadMem(4 bytes @ 0x4002101C) -- Data:  00 00 04 00  returns 0x00 (0002ms, 1564ms total)
T00D8 003:736 JLINK_ReadMem (0x4002101C, 0x0004 Bytes, ...) -- CPU is running -- CPU_ReadMem(4 bytes @ 0x4002101C) -- Data:  00 00 04 00  returns 0x00 (0003ms, 1567ms total)
T00D8 003:739 JLINK_ReadMem (0x4002101C, 0x0004 Bytes, ...) -- CPU is running -- CPU_ReadMem(4 bytes @ 0x4002101C) -- Data:  00 00 04 00  returns 0x00 (0002ms, 1569ms total)
T00D8 003:742 JLINK_ReadMem (0x4002101C, 0x0004 Bytes, ...) -- CPU is running -- CPU_ReadMem(4 bytes @ 0x4002101C) -- Data:  00 00 04 00  returns 0x00 (0002ms, 1572ms total)
T00D8 003:744 JLINK_ReadMem (0x4002101C, 0x0004 Bytes, ...) -- CPU is running -- CPU_ReadMem(4 bytes @ 0x4002101C) -- Data:  00 00 04 00  returns 0x00 (0003ms, 1575ms total)
T00D8 003:747 JLINK_ReadMem (0x4002101C, 0x0004 Bytes, ...) -- CPU is running -- CPU_ReadMem(4 bytes @ 0x4002101C) -- Data:  00 00 04 00  returns 0x00 (0003ms, 1578ms total)
T00D8 003:750 JLINK_ReadMem (0x4002101C, 0x0004 Bytes, ...) -- CPU is running -- CPU_ReadMem(4 bytes @ 0x4002101C) -- Data:  00 00 04 00  returns 0x00 (0003ms, 1581ms total)
T00D8 003:753 JLINK_ReadMem (0x4002101C, 0x0004 Bytes, ...) -- CPU is running -- CPU_ReadMem(4 bytes @ 0x4002101C) -- Data:  00 00 04 00  returns 0x00 (0003ms, 1584ms total)
T00D8 003:757 JLINK_ReadMem (0x4002101C, 0x0004 Bytes, ...) -- CPU is running -- CPU_ReadMem(4 bytes @ 0x4002101C) -- Data:  00 00 04 00  returns 0x00 (0003ms, 1588ms total)
T00D8 003:760 JLINK_ReadMem (0x4002101C, 0x0004 Bytes, ...) -- CPU is running -- CPU_ReadMem(4 bytes @ 0x4002101C) -- Data:  00 00 04 00  returns 0x00 (0003ms, 1591ms total)
T00D8 003:763 JLINK_ReadMem (0x4002101C, 0x0004 Bytes, ...) -- CPU is running -- CPU_ReadMem(4 bytes @ 0x4002101C) -- Data:  00 00 04 00  returns 0x00 (0002ms, 1593ms total)
T00D8 003:765 JLINK_ReadMem (0x4002101C, 0x0004 Bytes, ...) -- CPU is running -- CPU_ReadMem(4 bytes @ 0x4002101C) -- Data:  00 00 04 00  returns 0x00 (0003ms, 1596ms total)
T00D8 003:768 JLINK_ReadMem (0x4002101C, 0x0004 Bytes, ...) -- CPU is running -- CPU_ReadMem(4 bytes @ 0x4002101C) -- Data:  00 00 04 00  returns 0x00 (0002ms, 1598ms total)
T00D8 003:770 JLINK_ReadMem (0x4002101C, 0x0004 Bytes, ...) -- CPU is running -- CPU_ReadMem(4 bytes @ 0x4002101C) -- Data:  00 00 04 00  returns 0x00 (0003ms, 1601ms total)
T00D8 003:773 JLINK_ReadMem (0x4002101C, 0x0004 Bytes, ...) -- CPU is running -- CPU_ReadMem(4 bytes @ 0x4002101C) -- Data:  00 00 04 00  returns 0x00 (0002ms, 1603ms total)
T00D8 003:776 JLINK_ReadMem (0x4002101C, 0x0004 Bytes, ...) -- CPU is running -- CPU_ReadMem(4 bytes @ 0x4002101C) -- Data:  00 00 04 00  returns 0x00 (0002ms, 1606ms total)
T00D8 003:778 JLINK_ReadMem (0x40010C00, 0x0018 Bytes, ...) -- CPU is running -- CPU_ReadMem(24 bytes @ 0x40010C00) -- Data:  44 44 48 44 44 44 44 44 00 00 00 00 10 00 00 00 ...  returns 0x00 (0003ms, 1609ms total)
T00D8 003:781 JLINK_ReadMem (0x40010C18, 0x0004 Bytes, ...) -- CPU is running -- CPU_ReadMem(4 bytes @ 0x40010C18) -- Data:  00 00 00 00  returns 0x00 (0002ms, 1611ms total)
T00D8 003:783 JLINK_ReadMem (0x40004800, 0x0018 Bytes, ...) -- CPU is running -- CPU_ReadMem(24 bytes @ 0x40004800) -- Data:  C0 00 00 00 00 00 00 00 38 01 00 00 2C 20 00 00 ...  returns 0x00 (0003ms, 1614ms total)
T00D8 003:786 JLINK_ReadMem (0x40004818, 0x0004 Bytes, ...) -- CPU is running -- CPU_ReadMem(4 bytes @ 0x40004818) -- Data:  00 00 00 00  returns 0x00 (0002ms, 1616ms total)
T00D8 003:789 JLINK_ReadMem (0x40004800, 0x0004 Bytes, ...) -- CPU is running -- CPU_ReadMem(4 bytes @ 0x40004800) -- Data:  C0 00 00 00  returns 0x00 (0002ms, 1619ms total)
T00D8 003:791 JLINK_ReadMem (0x40004800, 0x0004 Bytes, ...) -- CPU is running -- CPU_ReadMem(4 bytes @ 0x40004800) -- Data:  C0 00 00 00  returns 0x00 (0003ms, 1622ms total)
T00D8 003:794 JLINK_ReadMem (0x40004800, 0x0004 Bytes, ...) -- CPU is running -- CPU_ReadMem(4 bytes @ 0x40004800) -- Data:  C0 00 00 00  returns 0x00 (0002ms, 1624ms total)
T00D8 003:796 JLINK_ReadMem (0x40004800, 0x0004 Bytes, ...) -- CPU is running -- CPU_ReadMem(4 bytes @ 0x40004800) -- Data:  C0 00 00 00  returns 0x00 (0003ms, 1627ms total)
T00D8 003:799 JLINK_ReadMem (0x40004800, 0x0004 Bytes, ...) -- CPU is running -- CPU_ReadMem(4 bytes @ 0x40004800) -- Data:  C0 00 00 00  returns 0x00 (0003ms, 1630ms total)
T00D8 003:802 JLINK_ReadMem (0x40004800, 0x0004 Bytes, ...) -- CPU is running -- CPU_ReadMem(4 bytes @ 0x40004800) -- Data:  C0 00 00 00  returns 0x00 (0002ms, 1632ms total)
T00D8 003:804 JLINK_ReadMem (0x40004800, 0x0004 Bytes, ...) -- CPU is running -- CPU_ReadMem(4 bytes @ 0x40004800) -- Data:  C0 00 00 00  returns 0x00 (0003ms, 1635ms total)
T00D8 003:807 JLINK_ReadMem (0x40004800, 0x0004 Bytes, ...) -- CPU is running -- CPU_ReadMem(4 bytes @ 0x40004800) -- Data:  C0 00 00 00  returns 0x00 (0002ms, 1637ms total)
T00D8 003:809 JLINK_ReadMem (0x40004800, 0x0004 Bytes, ...) -- CPU is running -- CPU_ReadMem(4 bytes @ 0x40004800) -- Data:  C0 00 00 00  returns 0x00 (0003ms, 1640ms total)
T00D8 003:812 JLINK_ReadMem (0x40004800, 0x0004 Bytes, ...) -- CPU is running -- CPU_ReadMem(4 bytes @ 0x40004800) -- Data:  C0 00 00 00  returns 0x00 (0002ms, 1642ms total)
T00D8 003:814 JLINK_ReadMem (0x40004800, 0x0004 Bytes, ...) -- CPU is running -- CPU_ReadMem(4 bytes @ 0x40004800) -- Data:  C0 00 00 00  returns 0x00 (0003ms, 1645ms total)
T00D8 003:817 JLINK_ReadMem (0x40004808, 0x0004 Bytes, ...) -- CPU is running -- CPU_ReadMem(4 bytes @ 0x40004808) -- Data:  38 01 00 00  returns 0x00 (0003ms, 1648ms total)
T00D8 003:820 JLINK_ReadMem (0x40004808, 0x0004 Bytes, ...) -- CPU is running -- CPU_ReadMem(4 bytes @ 0x40004808) -- Data:  38 01 00 00  returns 0x00 (0002ms, 1650ms total)
T00D8 003:822 JLINK_ReadMem (0x40004808, 0x0004 Bytes, ...) -- CPU is running -- CPU_ReadMem(4 bytes @ 0x40004808) -- Data:  38 01 00 00  returns 0x00 (0002ms, 1652ms total)
T00D8 003:825 JLINK_ReadMem (0x4000480C, 0x0004 Bytes, ...) -- CPU is running -- CPU_ReadMem(4 bytes @ 0x4000480C) -- Data:  2C 20 00 00  returns 0x00 (0002ms, 1655ms total)
T00D8 003:827 JLINK_ReadMem (0x4000480C, 0x0004 Bytes, ...) -- CPU is running -- CPU_ReadMem(4 bytes @ 0x4000480C) -- Data:  2C 20 00 00  returns 0x00 (0003ms, 1658ms total)
T00D8 003:830 JLINK_ReadMem (0x4000480C, 0x0004 Bytes, ...) -- CPU is running -- CPU_ReadMem(4 bytes @ 0x4000480C) -- Data:  2C 20 00 00  returns 0x00 (0003ms, 1661ms total)
T00D8 003:833 JLINK_ReadMem (0x4000480C, 0x0004 Bytes, ...) -- CPU is running -- CPU_ReadMem(4 bytes @ 0x4000480C) -- Data:  2C 20 00 00  returns 0x00 (0006ms, 1667ms total)
T00D8 003:839 JLINK_ReadMem (0x4000480C, 0x0004 Bytes, ...) -- CPU is running -- CPU_ReadMem(4 bytes @ 0x4000480C) -- Data:  2C 20 00 00  returns 0x00 (0003ms, 1670ms total)
T00D8 003:842 JLINK_ReadMem (0x4000480C, 0x0004 Bytes, ...) -- CPU is running -- CPU_ReadMem(4 bytes @ 0x4000480C) -- Data:  2C 20 00 00  returns 0x00 (0003ms, 1673ms total)
T00D8 003:846 JLINK_ReadMem (0x4000480C, 0x0004 Bytes, ...) -- CPU is running -- CPU_ReadMem(4 bytes @ 0x4000480C) -- Data:  2C 20 00 00  returns 0x00 (0003ms, 1677ms total)
T00D8 003:850 JLINK_ReadMem (0x4000480C, 0x0004 Bytes, ...) -- CPU is running -- CPU_ReadMem(4 bytes @ 0x4000480C) -- Data:  2C 20 00 00  returns 0x00 (0003ms, 1681ms total)
T00D8 003:853 JLINK_ReadMem (0x4000480C, 0x0004 Bytes, ...) -- CPU is running -- CPU_ReadMem(4 bytes @ 0x4000480C) -- Data:  2C 20 00 00  returns 0x00 (0004ms, 1685ms total)
